!Agilent Technologies,N5224A,MY51441023,A.09.90.17
!Agilent N5224A: A.09.90.17
!Date: Tuesday, May 16, 2017 17:47:51
!Correction: S11(Full 4 Port(1,2,3,4)) 
!S12(Full 4 Port(1,2,3,4)) 
!S13(Full 4 Port(1,2,3,4)) 
!S14(Full 4 Port(1,2,3,4)) 
!S21(Full 4 Port(1,2,3,4)) 
!S22(Full 4 Port(1,2,3,4)) 
!S23(Full 4 Port(1,2,3,4)) 
!S24(Full 4 Port(1,2,3,4)) 
!S31(Full 4 Port(1,2,3,4)) 
!S32(Full 4 Port(1,2,3,4)) 
!S33(Full 4 Port(1,2,3,4)) 
!S34(Full 4 Port(1,2,3,4)) 
!S41(Full 4 Port(1,2,3,4)) 
!S42(Full 4 Port(1,2,3,4)) 
!S43(Full 4 Port(1,2,3,4)) 
!S44(Full 4 Port(1,2,3,4)) 
!S4P File: Measurements: <S11,S12,S13,S14>,
!<S21,S22,S23,S24>,
!<S31,S32,S33,S34>,
!<S41,S42,S43,S44>:
# Hz S  dB   R 50
10000000 -22.806419 33.925953 -0.29221693 -27.58136 -26.603386 52.18457 -31.521706 -148.03822
-0.38541475 -27.452915 -22.70668 31.57436 -31.913183 -148.67566 -26.246471 48.638401
-26.496239 51.950264 -31.752998 -148.61807 -22.267878 32.635807 0.05161402 -27.442303
-31.697189 -148.15414 -26.467697 48.454922 -0.35777217 -27.348787 -22.644646 34.449623
20000000 -19.949499 16.185467 -0.48249781 -54.052692 -23.141495 32.264446 -27.069275 179.54976
-0.56273001 -53.97596 -20.232342 9.7857523 -27.520697 179.91003 -23.571726 22.077682
-23.02334 32.071236 -27.299015 179.60083 -19.940313 15.797955 -0.12594375 -53.908646
-27.329924 179.36124 -23.752621 21.954966 -0.53985101 -53.830681 -19.942215 10.555879
30000000 -19.730076 1.4673394 -0.72269189 -80.237572 -22.289791 18.936895 -23.803234 144.425
-0.80242789 -80.171104 -22.107489 -9.3631372 -24.206789 144.84315 -26.20159 7.5113392
-22.192396 18.844481 -23.963556 144.6626 -19.65679 1.9616036 -0.35681513 -80.071724
-24.063313 144.40891 -26.390537 6.924386 -0.78501517 -80.01088 -21.702393 -9.1864443
40000000 -20.098625 -9.0985765 -1.0340921 -105.20207 -21.732668 6.8176327 -21.751156 100.2879
-1.1172222 -105.14832 -25.222183 11.95155 -22.16453 100.54238 -26.201754 42.948208
-21.622707 7.3668928 -21.904745 100.54407 -19.984201 -9.161335 -0.66543758 -105.03973
-21.982061 100.26986 -26.423174 42.921894 -1.1005754 -104.92101 -24.695869 10.991187
50000000 -21.740793 -24.491547 -1.1417621 -128.80336 -23.069468 -14.161272 -21.914202 52.85006
-1.232275 -128.76964 -21.826857 19.768063 -22.38508 53.391468 -21.93685 32.733192
-22.875303 -12.150156 -22.084211 53.478764 -21.704794 -25.458735 -0.77671742 -128.59637
-22.113304 53.267502 -22.146868 32.692062 -1.2036508 -128.47337 -21.33177 18.593178
60000000 -28.264694 -30.460831 -1.0323597 -153.29376 -30.798136 -23.902805 -24.101196 11.698302
-1.0890505 -153.11783 -22.112453 10.145406 -24.575731 13.079826 -22.90929 16.693075
-29.875763 -22.194023 -24.306087 12.632849 -28.689554 -29.720022 -0.6261183 -152.89194
-24.248997 11.581517 -23.192198 16.650181 -1.0741432 -152.92683 -21.621836 9.1308088
70000000 -27.373198 53.473 -0.90081322 -179.02106 -28.059034 70.601791 -27.560583 -13.528824
-0.94384384 -178.81879 -23.124933 27.402346 -27.826286 -11.712473 -24.710445 37.202721
-28.183641 69.600082 -27.612858 -12.037981 -26.942078 55.093895 -0.48790577 -178.56989
-27.780672 -14.185884 -24.838257 37.076187 -0.94548649 -178.6311 -22.764486 27.695045
80000000 -19.874874 44.829857 -0.86713421 154.81363 -20.750608 56.328381 -29.616617 -18.238512
-0.91125125 154.98216 -19.380142 37.007999 -29.859673 -18.645544 -20.157059 47.375336
-20.607901 56.52441 -29.67382 -18.859484 -19.68038 45.848709 -0.45728284 155.23764
-29.960953 -19.116953 -20.419622 46.878113 -0.91678876 155.23911 -18.771946 38.047096
90000000 -16.951618 21.601841 -0.92889583 128.61963 -17.947447 32.030434 -28.038363 -24.480751
-0.97647202 128.79132 -16.746983 22.232353 -28.570168 -24.477348 -17.35413 29.579357
-17.744936 31.918352 -28.296183 -24.583838 -16.801764 22.95183 -0.51988584 129.07942
-28.337187 -24.658295 -17.610132 29.345997 -0.97605759 129.09743 -16.116293 22.888683
100000000 -16.557901 -4.5924883 -1.0292865 102.79084 -17.661718 5.5857315 -26.149775 -45.617855
-1.0803511 102.97374 -16.672468 3.7336965 -26.718618 -44.261967 -17.262293 9.2635336
-17.461777 5.2975979 -26.452063 -44.892284 -16.449078 -3.0363965 -0.62042266 103.27783
-26.423456 -46.054874 -17.513638 9.0253534 -1.0738977 103.27918 -16.052563 4.2469869
110000000 -18.618269 -30.901268 -1.1447247 77.018303 -19.985426 -19.838135 -24.487034 -69.553207
-1.1959842 77.247261 -18.39496 -7.8094735 -24.950289 -67.471504 -18.989914 -3.8600419
-19.763899 -20.242704 -24.748116 -68.141068 -18.615919 -28.636753 -0.73476988 77.532356
-24.802706 -70.19326 -19.243931 -4.2209506 -1.1882055 77.499565 -17.810886 -7.7381773
120000000 -24.777443 -51.671597 -1.3273386 51.487698 -26.84115 -33.442104 -22.623436 -98.898392
-1.3693897 51.723961 -20.611563 -4.4686818 -22.992693 -96.88327 -21.357443 -2.8203988
-26.538902 -35.394176 -22.830746 -97.434395 -24.935863 -46.101814 -0.916592 51.996941
-23.013271 -99.38163 -21.684149 -2.9715881 -1.3721347 51.954525 -20.123444 -5.6313715
130000000 -35.413025 39.950871 -1.5176389 26.751123 -31.399841 51.862709 -21.445826 -134.59352
-1.557937 26.932138 -20.788414 6.8146758 -21.777275 -132.80797 -22.239655 8.0452938
-31.810997 54.539967 -21.628984 -132.92668 -32.955902 38.708199 -1.1120892 27.288477
-21.831921 -134.38692 -22.460419 8.7571688 -1.5711964 27.236271 -20.715425 4.9707665
140000000 -23.290476 59.257023 -1.6114656 2.5736415 -23.098856 63.637638 -21.311848 -171.62317
-1.6567625 2.7235026 -20.099934 12.212878 -21.609966 -170.04549 -22.010777 20.174524
-22.812563 65.14856 -21.399513 -169.95193 -22.777777 57.451427 -1.2009546 3.1432948
-21.614195 -171.2249 -22.110161 19.574308 -1.6645081 3.1138873 -20.321594 13.210988
150000000 -18.886356 46.30022 -1.5806433 -21.7437 -19.058348 54.317432 -22.013298 153.80573
-1.6304922 -21.597818 -18.972584 17.793812 -22.276396 154.90038 -19.975965 31.463236
-18.759048 54.319393 -22.045328 154.70767 -18.479799 45.682018 -1.1745781 -21.184437
-22.29925 153.9137 -20.212896 30.817839 -1.637641 -21.188099 -18.912975 21.096321
160000000 -16.436411 28.803486 -1.4985209 -46.628117 -16.493628 38.311306 -23.222408 123.34297
-1.5540694 -46.477818 -16.650349 15.335647 -23.536726 123.63597 -16.730852 26.731716
-16.274271 37.930954 -23.293816 123.41135 -16.081369 28.349825 -1.0963012 -46.034588
-23.481226 123.46304 -17.000372 26.317947 -1.5548415 -46.0289 -16.240093 18.319593
170000000 -15.39535 7.3883214 -1.4290947 -71.934685 -15.300191 17.264353 -24.543436 97.11425
-1.4857614 -71.755478 -15.156723 0.52892947 -24.986301 97.079018 -14.965894 8.419898
-15.136513 17.021643 -24.748693 96.648567 -15.051888 7.2763405 -1.028854 -71.296135
-24.797533 96.943359 -15.215922 8.1734467 -1.4860251 -71.322395 -14.614167 2.6838083
180000000 -16.054424 -17.508665 -1.3694596 -97.495026 -15.851831 -7.2721376 -26.084219 75.191078
-1.4224937 -97.323418 -15.53187 -18.669603 -26.675814 75.14341 -15.213226 -13.748322
-15.691414 -7.24823 -26.470762 74.545921 -15.627774 -17.46744 -0.96733761 -96.807846
-26.392765 74.952919 -15.467278 -14.033665 -1.4293879 -96.845848 -14.896945 -16.742283
190000000 -19.555786 -45.328743 -1.3308152 -123.46822 -19.195717 -33.139172 -27.322016 63.427376
-1.3887657 -123.31983 -18.241179 -35.146172 -28.111681 64.310989 -17.808376 -34.658783
-19.001099 -32.923717 -28.007641 63.960583 -18.888357 -46.054863 -0.92864668 -122.74685
-27.655844 63.739796 -18.074356 -34.762844 -1.3944035 -122.76205 -17.487669 -33.217564
200000000 -33.481853 -75.511093 -1.3860387 -149.75536 -31.276838 -44.971775 -26.115751 55.762787
-1.4463807 -149.58505 -24.492153 -28.830627 -26.838284 58.677876 -24.866318 -40.946381
-30.820045 -44.648083 -26.642744 59.133762 -31.270918 -85.104019 -0.97659856 -148.97784
-26.324291 56.15456 -25.034323 -40.644405 -1.4407705 -148.99477 -23.494823 -27.202271
210000000 -23.282497 79.277313 -1.551608 -175.75195 -23.765265 77.150658 -23.579348 34.942337
-1.6118712 -175.55858 -23.075182 31.895391 -24.079388 37.86837 -25.633469 43.918819
-23.721054 76.656029 -23.804323 37.834122 -23.308411 84.619446 -1.1330018 -175.0072
-23.768219 34.602139 -25.946459 42.921333 -1.5972832 -175.00917 -22.200027 30.773838
220000000 -17.06896 54.328403 -1.7749748 159.00558 -17.253605 58.436451 -21.537846 3.3480494
-1.8362684 159.21526 -17.29738 32.181217 -21.993258 5.6712866 -17.993107 43.685837
-17.16185 58.371349 -21.739935 5.4290185 -16.850161 56.791176 -1.3606224 159.72113
-21.785725 2.814265 -18.26676 43.301189 -1.8255047 159.72763 -16.6299 31.787968
230000000 -14.611734 31.742266 -1.9514571 134.59869 -14.538095 38.116505 -20.570488 -32.185246
-2.0095427 134.82658 -14.452127 17.36381 -21.03223 -30.111382 -14.528314 26.634045
-14.419443 38.208656 -20.789705 -30.402058 -14.356565 33.633801 -1.5430061 135.30632
-20.85358 -32.769123 -14.798421 26.349836 -2.0049472 135.32559 -13.8166 17.554815
240000000 -13.765523 10.738255 -2.0253668 110.63971 -13.400647 18.244663 -20.372929 -68.754295
-2.0789516 110.86198 -13.317377 -0.15403727 -20.835737 -66.732307 -12.980074 7.1988788
-13.261912 18.411484 -20.606012 -67.06263 -13.449743 12.616025 -1.6231128 111.37518
-20.682919 -69.274193 -13.245327 6.9893498 -2.0826855 111.37524 -12.688286 0.32398027
250000000 -14.086371 -10.169838 -1.9609392 86.699318 -13.367182 -1.6749568 -21.047184 -106.10655
-2.0105009 86.907799 -13.422906 -18.255674 -21.478935 -104.29796 -12.707291 -13.024073
-13.207975 -1.5311857 -21.251093 -104.64346 -13.645801 -8.2999039 -1.5632653 87.499344
-21.382664 -106.52032 -12.968837 -13.215423 -2.0236292 87.49762 -12.78934 -17.516392
260000000 -15.760056 -31.795706 -1.7531711 62.093182 -14.568466 -22.53096 -23.13463 -142.67522
-1.8061949 62.274986 -14.949565 -36.018459 -23.580759 -141.40222 -13.831782 -33.883492
-14.396322 -22.454437 -23.356064 -141.77328 -15.187393 -30.441488 -1.3572398 62.984085
-23.475851 -142.77599 -14.084525 -34.056839 -1.818627 62.969688 -14.246094 -35.316051
270000000 -20.31706 -56.843395 -1.5202702 36.048275 -18.186068 -45.013103 -27.823584 -166.25285
-1.5745333 36.242062 -18.978415 -49.220329 -28.389954 -166.07442 -17.31768 -53.632931
-18.025162 -44.947872 -28.216589 -166.48512 -19.396513 -56.327854 -1.11308 36.979675
-28.148525 -166.47153 -17.567129 -53.802765 -1.5774879 36.9711 -18.135521 -48.777603
280000000 -49.011189 101.46527 -1.4549196 8.7744122 -31.837185 -41.350834 -29.542284 -139.45111
-1.5078459 8.9777422 -26.205555 -8.0093498 -30.470768 -136.49309 -27.333628 -41.488861
-31.674868 -41.350456 -30.228405 -136.33932 -45.608765 -129.0188 -1.0387743 9.7205114
-29.84409 -139.31369 -27.568872 -41.858509 -1.5021623 9.714345 -25.22905 -11.987228
290000000 -19.460356 65.185806 -1.6576455 -18.326418 -20.937424 59.9044 -23.600212 -151.69662
-1.7104697 -18.129 -18.153992 29.108212 -24.123861 -148.13124 -20.170837 36.518204
-20.748178 59.910213 -23.890566 -148.36179 -19.682955 68.661346 -1.2362523 -17.448595
-23.927824 -151.71362 -20.43458 36.339092 -1.7000227 -17.455915 -17.674622 27.229279
300000000 -14.850403 39.536419 -1.9970416 -44.082924 -15.306878 41.184509 -20.462303 172.66058
-2.0480678 -43.892105 -13.821838 13.474019 -20.927166 175.38164 -14.531607 21.529484
-15.126262 41.149887 -20.706167 175.16803 -14.735572 42.361122 -1.5878832 -43.220695
-20.774155 172.68544 -14.790625 21.348282 -2.0492032 -43.233681 -13.292467 12.284534
310000000 -13.12219 16.644005 -2.289408 -68.388527 -13.010118 21.126598 -19.131874 133.92328
-2.3417115 -68.214699 -12.10471 -5.2832942 -19.606846 136.3947 -12.172861 2.4642994
-12.835877 21.04628 -19.384941 136.17046 -12.878288 19.238541 -1.8895655 -67.49939
-19.432402 133.96912 -12.427212 2.2922931 -2.3524148 -67.509857 -11.509025 -6.2073011
320000000 -12.784051 -4.305057 -2.4279346 -91.975014 -12.109796 1.7493093 -18.848188 95.878738
-2.4822683 -91.807549 -11.686854 -23.357409 -19.319632 98.341957 -11.185801 -16.715771
-11.941975 1.6509676 -19.099041 98.097588 -12.441574 -1.5705551 -2.0343778 -91.027481
-19.145851 95.905495 -11.439219 -16.878672 -2.4980211 -91.025566 -11.028648 -24.170771
330000000 -13.49447 -24.888668 -2.3967755 -115.53558 -12.1903 -18.204672 -19.383482 58.754627
-2.4505258 -115.36034 -12.229436 -41.053265 -19.833492 61.188858 -11.168994 -36.653423
-12.02661 -18.295315 -19.616772 60.967777 -13.017972 -21.942801 -2.0039485 -114.49457
-19.674028 58.745323 -11.423676 -36.82217 -2.4680462 -114.5018 -11.513176 -41.738308
340000000 -15.656668 -47.625191 -2.214196 -139.7347 -13.524413 -40.313477 -20.939585 23.498894
-2.2689555 -139.54836 -14.051594 -59.151379 -21.352137 25.873991 -12.357861 -58.363106
-13.367647 -40.394943 -21.133785 25.616505 -14.965365 -44.327358 -1.8171519 -138.6106
-21.219437 23.425747 -12.609371 -58.548485 -2.2799499 -138.61401 -13.230564 -59.775543
350000000 -21.672476 -76.597824 -1.967088 -165.26064 -17.554419 -65.392891 -24.099321 -3.4195607
-2.0215263 -165.07541 -18.883467 -74.880577 -24.423168 -1.5133191 -15.939793 -81.757439
-17.395967 -65.437973 -24.209766 -1.7635535 -20.375618 -71.948029 -1.5565929 -164.05533
-24.398043 -3.6027033 -16.192789 -81.939934 -2.0196273 -164.06123 -17.807596 -76.066589
360000000 -28.935099 100.38747 -1.8538771 167.98743 -37.147934 -78.668564 -26.637959 -3.6136811
-1.9069713 168.17941 -27.7875 -1.0376229 -27.069584 -3.2839274 -29.104094 -85.434799
-37.045128 -78.56263 -26.860186 -3.5581934 -31.805277 105.77332 -1.4262772 169.17479
-26.959108 -3.8912561 -29.389017 -85.463104 -1.8888261 169.16977 -27.76438 -12.730123
370000000 -16.723015 55.694027 -1.9462928 140.85768 -19.276415 51.062401 -23.670635 -3.4863544
-2.0022845 141.02835 -16.223177 14.149814 -24.288363 -1.8948501 -19.359459 19.16287
-19.135597 51.01569 -24.077526 -1.913272 -17.038876 56.982391 -1.5129144 141.92134
-23.963652 -3.3687818 -19.602308 18.855473 -1.9738193 141.9283 -16.140934 12.840737
380000000 -13.272083 27.979748 -2.2610142 114.77833 -14.208534 27.479855 -20.299221 -32.624134
-2.3186915 114.96946 -12.684196 -6.5566392 -20.844517 -30.453373 -14.005 -0.18598638
-14.049892 27.566853 -20.610994 -30.578344 -13.30949 29.834215 -1.8376172 115.77161
-20.58024 -32.750626 -14.255239 -0.39666545 -2.2972481 115.76134 -12.36917 -7.2241845
390000000 -12.13839 4.8352489 -2.5465486 90.315712 -12.23845 6.5251684 -18.851351 -69.188072
-2.6016603 90.518364 -11.485623 -26.589886 -19.343813 -66.929504 -11.85864 -19.815298
-12.073744 6.5675921 -19.115303 -67.110207 -11.989294 7.2813625 -2.1401494 91.324348
-19.150894 -69.360741 -12.108797 -19.993818 -2.6022005 91.293747 -11.057174 -27.346846
400000000 -12.232171 -15.785377 -2.6857111 66.604424 -11.570513 -12.964599 -18.499355 -105.76217
-2.7403481 66.807251 -11.471338 -45.258038 -18.948215 -103.67788 -11.016562 -39.091072
-11.407997 -12.945618 -18.71933 -103.87768 -11.901126 -13.185795 -2.2905519 67.696335
-18.803665 -105.89262 -11.266806 -39.259113 -2.7571435 67.68647 -10.950559 -46.288822
410000000 -13.395423 -35.518867 -2.6611447 43.062824 -11.861091 -32.55072 -18.945662 -142.14952
-2.7121861 43.261448 -12.437631 -63.260509 -19.410097 -140.32169 -11.140243 -59.076015
-11.69679 -32.50629 -19.187679 -140.52663 -12.905417 -33.009766 -2.2694612 44.255955
-19.257502 -142.29716 -11.387956 -59.223293 -2.7328746 44.276764 -11.780145 -64.722839
420000000 -16.069679 -55.554672 -2.4528778 18.820717 -13.33765 -53.387394 -20.612303 -176.72224
-2.5041835 19.011078 -14.69155 -80.311592 -21.090666 -174.40193 -12.401801 -80.216583
-13.167061 -53.362625 -20.866322 -174.61465 -15.425002 -52.583984 -2.0561454 20.170835
-20.924047 -176.81723 -12.647161 -80.38134 -2.517628 20.182703 -13.850584 -82.703804
430000000 -23.135241 -76.249756 -2.1938198 -6.8967104 -17.254631 -76.209503 -23.865992 159.20216
-2.2469852 -6.7099824 -19.897497 -93.209595 -24.19883 162.06886 -15.769641 -103.25357
-17.089539 -76.172371 -23.968351 161.82712 -21.583628 -71.132439 -1.7812881 -5.481914
-24.179213 159.08078 -16.012791 -103.44607 -2.2409401 -5.5015459 -18.637341 -98.381973
440000000 -27.065845 64.365433 -2.0866706 -34.14362 -32.0895 -84.166031 -25.60354 166.10004
-2.1395931 -33.961079 -27.343018 -20.850317 -25.73168 167.04538 -26.137527 -117.21461
-31.925377 -83.933739 -25.512947 166.81206 -29.618519 53.986248 -1.6547179 -32.727913
-25.929728 166.05798 -26.388626 -117.36974 -2.1172886 -32.741745 -28.836184 -36.361946
450000000 -16.365107 42.13063 -2.2937517 -61.451008 -20.347927 39.096256 -21.496349 157.1665
-2.3465483 -61.272896 -17.079227 -3.1177716 -21.866476 157.50018 -22.298384 3.3789408
-20.177862 39.012913 -21.647905 157.23775 -16.886299 43.241886 -1.8521787 -60.097702
-21.810976 157.16843 -22.53425 3.171406 -2.3124344 -60.120342 -17.329723 -4.3212476
460000000 -13.038542 18.501436 -2.6967444 -87.099663 -14.617956 18.280605 -18.563093 123.91777
-2.7498631 -86.925705 -13.298915 -21.565197 -18.987551 124.50525 -15.367129 -13.671799
-14.455128 18.216106 -18.779041 124.2842 -13.099276 20.773111 -2.2545681 -85.825668
-18.880903 123.91421 -15.603841 -13.948253 -2.7163174 -85.858795 -13.190269 -22.950018
470000000 -11.784101 -2.7632661 -3.0345662 -110.72784 -12.215158 -2.3542278 -17.308413 85.057091
-3.0889916 -110.55041 -11.8276 -41.128525 -17.75946 85.666283 -12.549006 -33.854313
-12.056137 -2.3810408 -17.549084 85.559807 -11.62129 -0.46605161 -2.5992038 -109.51775
-17.62281 85.162827 -12.802102 -34.144405 -3.0639842 -109.53416 -11.604852 -42.735874
480000000 -11.931888 -23.876377 -3.0916266 -133.39246 -11.454722 -23.788342 -17.388729 45.871029
-3.1440115 -133.19434 -11.697228 -61.632095 -17.870203 46.299301 -11.414646 -55.796101
-11.281498 -23.744413 -17.63439 46.232189 -11.670881 -21.424269 -2.6732867 -132.20956
-17.681889 45.970879 -11.667021 -56.02874 -3.1376364 -132.19942 -11.415176 -63.488098
490000000 -13.347574 -41.237617 -2.8984313 -156.81677 -11.856415 -43.063877 -18.41548 9.1564837
-2.9488814 -156.63123 -12.976881 -81.314751 -19.081264 10.084774 -11.595442 -77.68232
-11.685609 -43.124031 -18.836792 9.8354082 -12.963524 -38.356853 -2.4900157 -155.5351
-18.6982 9.1803236 -11.845246 -77.86718 -2.9485526 -155.52481 -12.579761 -83.195641
500000000 -16.245209 -58.129406 -2.6088915 178.34642 -13.422886 -63.967003 -20.510483 -23.630207
-2.6624961 178.51961 -15.971487 -98.518135 -21.145466 -20.82362 -13.07425 -100.05391
-13.255418 -64.061256 -20.918734 -21.113729 -15.568748 -54.219654 -2.2056589 179.71014
-20.79707 -23.625666 -13.322671 -100.25886 -2.6651666 179.69685 -15.273138 -102.34912
510000000 -23.745951 -61.33131 -2.3579381 152.19386 -17.618458 -84.138268 -23.868526 -45.773182
-2.4092383 152.36847 -22.622366 -103.68935 -24.159821 -41.479202 -16.747141 -122.62572
-17.453302 -84.24118 -23.936687 -41.78809 -21.799379 -58.435799 -1.9458883 153.66379
-24.152737 -45.795177 -16.997355 -122.83417 -2.4108195 153.66743 -21.686098 -116.19909
520000000 -23.017111 28.388962 -2.2755952 124.97091 -30.015514 -67.053467 -25.714104 -40.097378
-2.3275537 125.15079 -24.495928 -22.2082 -25.549049 -38.602306 -27.207888 -131.5107
-29.863649 -67.185165 -25.334801 -38.911316 -23.572037 18.246794 -1.8502086 126.46555
-25.996201 -40.209286 -27.448828 -131.7749 -2.3126476 126.46791 -27.352451 -19.597654
530000000 -15.593161 21.43614 -2.4486556 97.837204 -20.535288 17.254179 -22.171175 -46.628471
-2.500737 98.016678 -16.628881 -22.216311 -22.318172 -47.163971 -23.251875 -19.084137
-20.369516 17.220404 -22.101755 -47.431217 -15.925353 20.400011 -2.0127845 99.298851
-22.465723 -46.74762 -23.505356 -19.328243 -2.475379 99.296768 -17.105728 -19.298616
540000000 -12.837846 2.0379062 -2.7762249 71.960281 -15.229613 1.7224895 -19.312357 -76.124802
-2.8323553 72.140121 -13.620531 -41.460037 -19.617302 -76.328781 -16.540583 -34.42868
-15.060186 1.6819131 -19.394011 -76.59977 -12.918851 2.8565807 -2.3399987 73.368164
-19.605917 -76.241379 -16.794085 -34.686394 -2.8039784 73.367538 -13.653391 -40.725857
550000000 -12.193445 -17.404625 -3.1113551 47.773716 -13.297351 -17.032883 -17.849241 -112.77432
-3.1648712 47.980724 -12.822809 -61.865517 -18.198318 -112.62721 -14.107697 -54.723328
-13.118559 -17.142168 -17.97603 -112.89941 -12.091199 -15.43909 -2.6749499 49.115791
